T6D1C 337572:186 SEGGER J-Link V6.30h Log File (0001ms, 138712ms total)
T6D1C 337572:186 DLL Compiled: Mar 16 2018 18:02:51 (0001ms, 138712ms total)
T6D1C 337572:186 Logging started @ 2019-05-14 09:46 (0001ms, 138712ms total)
T6D1C 337572:187 JLINK_SetWarnOutHandler(...) (0000ms, 138712ms total)
T6D1C 337572:187 JLINK_OpenEx(...)
Firmware: J-Link V9 compiled Jun  2 2222 22:22:22
Hardware: V9.40
S/N: 59401308
Feature(s): GDB, RDI, FlashBP, FlashDL, JFlash, RDDI
TELNET listener socket opened on port 19021Device "STM32F429ZG" selected.WEBSRV 
Starting webserver (0136ms, 138848ms total)
T6D1C 337572:187 WEBSRV Webserver running on local port 19080 (0136ms, 138848ms total)
T6D1C 337572:187   returns O.K. (0136ms, 138848ms total)
T6D1C 337572:323 JLINK_GetEmuCaps()  returns 0xB9FF7BBF (0000ms, 138848ms total)
T6D1C 337572:323 JLINK_TIF_GetAvailable(...) (0001ms, 138849ms total)
T6D1C 337572:324 JLINK_SetErrorOutHandler(...) (0000ms, 138849ms total)
T6D1C 337572:324 JLINK_ExecCommand("ProjectFile = "E:\FPGA\SEA\FreeRTOS\USER\JLinkSettings.ini"", ...). Device "STM32F429ZG" selected.  returns 0x00 (0005ms, 138854ms total)
T6D1C 337572:329 JLINK_ExecCommand("Device = STM32F429ZGTx", ...). Device "STM32F429ZG" selected.  returns 0x00 (0003ms, 138857ms total)
T6D1C 337572:332 JLINK_ExecCommand("DisableConnectionTimeout", ...).   returns 0x01 (0000ms, 138857ms total)
T6D1C 337572:332 JLINK_GetHardwareVersion()  returns 0x16F30 (0000ms, 138857ms total)
T6D1C 337572:332 JLINK_GetDLLVersion()  returns 63008 (0000ms, 138857ms total)
T6D1C 337572:332 JLINK_GetFirmwareString(...) (0000ms, 138857ms total)
T6D1C 337572:332 JLINK_GetDLLVersion()  returns 63008 (0000ms, 138857ms total)
T6D1C 337572:332 JLINK_GetCompileDateTime() (0000ms, 138857ms total)
T6D1C 337572:332 JLINK_GetFirmwareString(...) (0000ms, 138857ms total)
T6D1C 337572:332 JLINK_GetHardwareVersion()  returns 0x16F30 (0000ms, 138857ms total)
T6D1C 337572:332 JLINK_TIF_Select(JLINKARM_TIF_SWD)  returns 0x00 (0001ms, 138858ms total)
T6D1C 337572:333 JLINK_SetSpeed(50000) (0000ms, 138858ms total)
T6D1C 337572:333 JLINK_GetId() >0x10B TIF>Found SW-DP with ID 0x2BA01477 >0x0D TIF> >0x28 TIF> >0x0D TIF> >0x28 TIF> >0x0D TIF> >0x28 TIF> >0x0D TIF> >0x28 TIF> >0x0D TIF> >0x21 TIF> >0x0D TIF> >0x28 TIF> >0x0D TIF> >0x28 TIF> >0x0D TIF> >0x28 TIF> >0x0D TIF> >0x21 TIF> >0x0D TIF> >0x21 TIF> >0x0D TIF> >0x28 TIF> >0x0D TIF> >0x21 TIF> >0x0D TIF> >0x21 TIF> >0x0D TIF> >0x28 TIF> >0x0D TIF> >0x21 TIF> >0x0D TIF> >0x21 TIF> >0x0D TIF> >0x28 TIF> >0x0D TIF> >0x21 TIF> >0x0D TIF> >0x21 TIF> >0x0D TIF>
 >0x28 TIF> >0x0D TIF> >0x21 TIF> >0x0D TIF> >0x21 TIF> >0x0D TIF> >0x28 TIF> >0x0D TIF> >0x21 TIF> >0x0D TIF> >0x21 TIF> >0x0D TIF> >0x28 TIF> >0x0D TIF> >0x21 TIF> >0x0D TIF> >0x21 TIF> >0x10B TIF>Found SW-DP with ID 0x2BA01477 >0x0D TIF> >0x28 TIF> >0x0D TIF> >0x28 TIF> >0x0D TIF> >0x28 TIF> >0x0D TIF> >0x28 TIF> >0x0D TIF> >0x21 TIF> >0x0D TIF> >0x28 TIF>Scanning AP map to find all available APs >0x0D TIF> >0x28 TIF> >0x0D TIF> >0x21 TIF> >0x0D TIF> >0x21 TIF> >0x0D TIF> >0x28 TIF> >0x0D TIF>
 >0x21 TIF> >0x0D TIF> >0x21 TIF>AP[1]: Stopped AP scan as end of AP map has been reachedAP[0]: AHB-AP (IDR: 0x24770011)Iterating through AP map to find AHB-AP to use >0x42 TIF> >0x28 TIF> >0x0D TIF> >0x28 TIF> >0x0D TIF> >0x21 TIF> >0x0D TIF> >0x21 TIF> >0x42 TIF> >0x28 TIF> >0x0D TIF> >0x28 TIF> >0x0D TIF> >0x28 TIF> >0x0D TIF> >0x21 TIF> >0x0D TIF> >0x21 TIF>AP[0]: Core foundAP[0]: AHB-AP ROM base: 0xE00FF000 >0x0D TIF> >0x28 TIF> >0x0D TIF> >0x28 TIF> >0x0D TIF> >0x28 TIF> >0x0D TIF> >0x21 TIF>
 >0x0D TIF> >0x21 TIF>CPUID register: 0x410FC241. Implementer code: 0x41 (ARM)Found Cortex-M4 r0p1, Little endian. -- CPU_ReadMem(4 bytes @ 0xE000EDF0) -- CPU_ReadMem(4 bytes @ 0xE0002000)FPUnit: 6 code (BP) slots and 2 literal slots -- CPU_ReadMem(4 bytes @ 0xE000EDFC) -- CPU_ReadMem(4 bytes @ 0xE0001000) -- CPU_WriteMem(4 bytes @ 0xE0001000) -- CPU_ReadMem(4 bytes @ 0xE000ED88) -- CPU_WriteMem(4 bytes @ 0xE000ED88) -- CPU_ReadMem(4 bytes @ 0xE000ED88) -- CPU_WriteMem(4 bytes @ 0xE000ED88)
CoreSight components:ROMTbl[0] @ E00FF000 -- CPU_ReadMem(16 bytes @ 0xE00FF000) -- CPU_ReadMem(16 bytes @ 0xE000EFF0) -- CPU_ReadMem(16 bytes @ 0xE000EFE0)ROMTbl[0][0]: E000E000, CID: B105E00D, PID: 000BB00C SCS-M7 -- CPU_ReadMem(16 bytes @ 0xE0001FF0) -- CPU_ReadMem(16 bytes @ 0xE0001FE0)ROMTbl[0][1]: E0001000, CID: B105E00D, PID: 003BB002 DWT -- CPU_ReadMem(16 bytes @ 0xE0002FF0) -- CPU_ReadMem(16 bytes @ 0xE0002FE0)ROMTbl[0][2]: E0002000, CID: B105E00D, PID: 002BB003 FPB
 -- CPU_ReadMem(16 bytes @ 0xE0000FF0) -- CPU_ReadMem(16 bytes @ 0xE0000FE0)ROMTbl[0][3]: E0000000, CID: B105E00D, PID: 003BB001 ITM -- CPU_ReadMem(16 bytes @ 0xE00FF010) -- CPU_ReadMem(16 bytes @ 0xE0040FF0) -- CPU_ReadMem(16 bytes @ 0xE0040FE0)ROMTbl[0][4]: E0040000, CID: B105900D, PID: 000BB9A1 TPIU -- CPU_ReadMem(16 bytes @ 0xE0041FF0) -- CPU_ReadMem(16 bytes @ 0xE0041FE0)ROMTbl[0][5]: E0041000, CID: B105900D, PID: 000BB925 ETM >0x0D TIF> >0x21 TIF>  returns 0x2BA01477 (0127ms, 138985ms total)
T6D1C 337572:460 JLINK_GetDLLVersion()  returns 63008 (0000ms, 138985ms total)
T6D1C 337572:460 JLINK_CORE_GetFound()  returns 0xE0000FF (0000ms, 138985ms total)
T6D1C 337572:460 JLINK_GetDebugInfo(0x100 = JLINKARM_ROM_TABLE_ADDR_INDEX) -- Value=0xE00FF000  returns 0x00 (0000ms, 138985ms total)
T6D1C 337572:460 JLINK_GetDebugInfo(0x100 = JLINKARM_ROM_TABLE_ADDR_INDEX) -- Value=0xE00FF000  returns 0x00 (0000ms, 138985ms total)
T6D1C 337572:460 JLINK_GetDebugInfo(0x101 = JLINKARM_DEBUG_INFO_ETM_ADDR_INDEX) -- Value=0xE0041000  returns 0x00 (0000ms, 138985ms total)
T6D1C 337572:460 JLINK_ReadMemEx(0xE0041FD0, 0x0020 Bytes, ..., Flags = 0x02000004) -- CPU_ReadMem(32 bytes @ 0xE0041FD0) - Data: 04 00 00 00 00 00 00 00 00 00 00 00 00 00 00 00 ...  returns 0x20 (0000ms, 138985ms total)
T6D1C 337572:460 JLINK_GetDebugInfo(0x102 = JLINKARM_DEBUG_INFO_MTB_ADDR_INDEX) -- Value=0x00000000  returns 0x00 (0000ms, 138985ms total)
T6D1C 337572:460 JLINK_GetDebugInfo(0x103 = JLINKARM_DEBUG_INFO_TPIU_ADDR_INDEX) -- Value=0xE0040000  returns 0x00 (0000ms, 138985ms total)
T6D1C 337572:460 JLINK_GetDebugInfo(0x104 = JLINKARM_DEBUG_INFO_ITM_ADDR_INDEX) -- Value=0xE0000000  returns 0x00 (0000ms, 138985ms total)
T6D1C 337572:460 JLINK_GetDebugInfo(0x105 = JLINKARM_DEBUG_INFO_DWT_ADDR_INDEX) -- Value=0xE0001000  returns 0x00 (0000ms, 138985ms total)
T6D1C 337572:460 JLINK_GetDebugInfo(0x106 = JLINKARM_DEBUG_INFO_FPB_ADDR_INDEX) -- Value=0xE0002000  returns 0x00 (0000ms, 138985ms total)
T6D1C 337572:460 JLINK_GetDebugInfo(0x107 = JLINKARM_DEBUG_INFO_NVIC_ADDR_INDEX) -- Value=0xE000E000  returns 0x00 (0000ms, 138985ms total)
T6D1C 337572:460 JLINK_GetDebugInfo(0x10C = JLINKARM_DEBUG_INFO_DBG_ADDR_INDEX) -- Value=0xE000EDF0  returns 0x00 (0000ms, 138985ms total)
T6D1C 337572:460 JLINK_GetDebugInfo(0x01 = Unknown) -- Value=0x00000001  returns 0x00 (0000ms, 138985ms total)
T6D1C 337572:460 JLINK_ReadMemU32(0xE000ED00, 0x0001 Items, ...) -- CPU_ReadMem(4 bytes @ 0xE000ED00) - Data: 41 C2 0F 41  returns 0x01 (0001ms, 138986ms total)
T6D1C 337572:461 JLINK_GetDebugInfo(0x10F = JLINKARM_DEBUG_INFO_HAS_CORTEX_M_SECURITY_EXT_INDEX) -- Value=0x00000000  returns 0x00 (0000ms, 138986ms total)
T6D1C 337572:461 JLINK_SetResetType(JLINKARM_CM3_RESET_TYPE_NORMAL)  returns JLINKARM_CM3_RESET_TYPE_NORMAL (0000ms, 138986ms total)
T6D1C 337572:461 JLINK_Reset() -- CPU is running -- CPU_WriteMem(4 bytes @ 0xE000EDF0) -- CPU is running -- CPU_WriteMem(4 bytes @ 0xE000EDFC)Reset: Halt core after reset via DEMCR.VC_CORERESET. >0x35 TIF>Reset: Reset device via AIRCR.SYSRESETREQ. -- CPU is running -- CPU_WriteMem(4 bytes @ 0xE000ED0C) >0x0D TIF> >0x28 TIF> -- CPU_ReadMem(4 bytes @ 0xE000EDF0) -- CPU_ReadMem(4 bytes @ 0xE000EDF0) -- CPU is running -- CPU_WriteMem(4 bytes @ 0xE000EDF0) -- CPU is running
 -- CPU_WriteMem(4 bytes @ 0xE000EDFC) -- CPU_ReadMem(4 bytes @ 0xE000EDF0) -- CPU_WriteMem(4 bytes @ 0xE0002000) -- CPU_ReadMem(4 bytes @ 0xE000EDFC) -- CPU_ReadMem(4 bytes @ 0xE0001000) (0065ms, 139051ms total)
T6D1C 337572:526 JLINK_ReadReg(R15 (PC))  returns 0x08000314 (0000ms, 139051ms total)
T6D1C 337572:526 JLINK_ReadReg(XPSR)  returns 0x01000000 (0000ms, 139051ms total)
T6D1C 337572:526 JLINK_Halt()  returns 0x00 (0000ms, 139051ms total)
T6D1C 337572:526 JLINK_ReadMemU32(0xE000EDF0, 0x0001 Items, ...) -- CPU_ReadMem(4 bytes @ 0xE000EDF0) - Data: 03 00 03 00  returns 0x01 (0000ms, 139051ms total)
T6D1C 337572:526 JLINK_WriteU32(0xE000EDF0, 0xA05F0003) -- CPU_WriteMem(4 bytes @ 0xE000EDF0)  returns 0x00 (0000ms, 139051ms total)
T6D1C 337572:526 JLINK_WriteU32(0xE000EDFC, 0x01000000) -- CPU_WriteMem(4 bytes @ 0xE000EDFC)  returns 0x00 (0001ms, 139052ms total)
T6D1C 337572:527 JLINK_GetHWStatus(...)  returns 0x00 (0000ms, 139052ms total)
T6D1C 337572:527 JLINK_GetNumBPUnits(Type = 0xFFFFFF00)  returns 0x06 (0000ms, 139052ms total)
T6D1C 337572:527 JLINK_GetNumBPUnits(Type = 0xF0)  returns 0x2000 (0000ms, 139052ms total)
T6D1C 337572:527 JLINK_GetNumWPUnits()  returns 0x04 (0000ms, 139052ms total)
T6D1C 337572:527 JLINK_GetSpeed()  returns 0x2EE0 (0000ms, 139052ms total)
T6D1C 337572:527 JLINK_ReadMemU32(0xE000E004, 0x0001 Items, ...) -- CPU_ReadMem(4 bytes @ 0xE000E004) - Data: 02 00 00 00  returns 0x01 (0000ms, 139052ms total)
T6D1C 337572:527 JLINK_ReadMemU32(0xE000E004, 0x0001 Items, ...) -- CPU_ReadMem(4 bytes @ 0xE000E004) - Data: 02 00 00 00  returns 0x01 (0001ms, 139053ms total)
T6D1C 337572:528 JLINK_WriteMemEx(0xE0001000, 0x001C Bytes, ..., Flags = 0x02000004) - Data: 01 00 00 00 00 00 00 00 00 00 00 00 00 00 00 00 ... -- CPU_WriteMem(28 bytes @ 0xE0001000)  returns 0x1C (0001ms, 139054ms total)
T6D1C 337572:529 JLINK_ReadReg(R15 (PC))  returns 0x08000314 (0000ms, 139054ms total)
T6D1C 337572:529 JLINK_ReadReg(XPSR)  returns 0x01000000 (0000ms, 139054ms total)
T6D1C 337572:622 JLINK_SetResetType(JLINKARM_CM3_RESET_TYPE_NORMAL)  returns JLINKARM_CM3_RESET_TYPE_NORMAL (0000ms, 139054ms total)
T6D1C 337572:622 JLINK_Reset() -- CPU_WriteMem(4 bytes @ 0xE000EDF0) -- CPU_WriteMem(4 bytes @ 0xE000EDFC)Reset: Halt core after reset via DEMCR.VC_CORERESET. >0x35 TIF>Reset: Reset device via AIRCR.SYSRESETREQ. -- CPU_WriteMem(4 bytes @ 0xE000ED0C) >0x0D TIF> >0x28 TIF> -- CPU_ReadMem(4 bytes @ 0xE000EDF0) -- CPU_ReadMem(4 bytes @ 0xE000EDF0) -- CPU_WriteMem(4 bytes @ 0xE000EDF0) -- CPU_WriteMem(4 bytes @ 0xE000EDFC) -- CPU_ReadMem(4 bytes @ 0xE000EDF0) -- CPU_WriteMem(4 bytes @ 0xE0002000)
 -- CPU_ReadMem(4 bytes @ 0xE000EDFC) -- CPU_ReadMem(4 bytes @ 0xE0001000) (0065ms, 139119ms total)
T6D1C 337572:687 JLINK_ReadReg(R15 (PC))  returns 0x08000314 (0000ms, 139119ms total)
T6D1C 337572:687 JLINK_ReadReg(XPSR)  returns 0x01000000 (0000ms, 139119ms total)
T6D1C 337572:688 JLINK_ReadMemEx(0x08000214, 0x003C Bytes, ..., Flags = 0x02000000) -- CPU_ReadMem(128 bytes @ 0x08000200) -- Updating C cache (128 bytes @ 0x08000200) -- Read from C cache (60 bytes @ 0x08000214) - Data: 52 07 28 BF 30 C1 48 BF 0B 60 70 47 64 29 00 F0 ...  returns 0x3C (0001ms, 139120ms total)
T6D1C 337572:689 JLINK_ReadMemEx(0x08000250, 0x003C Bytes, ..., Flags = 0x02000000) -- CPU_ReadMem(64 bytes @ 0x08000280) -- Updating C cache (64 bytes @ 0x08000280) -- Read from C cache (60 bytes @ 0x08000250) - Data: FF F7 F2 FF 03 BC 02 F0 9B F9 00 00 2A 4B 19 68 ...  returns 0x3C (0001ms, 139121ms total)
T6D1C 337572:690 JLINK_ReadMemEx(0x0800028C, 0x003C Bytes, ..., Flags = 0x02000000) -- CPU_ReadMem(64 bytes @ 0x080002C0) -- Updating C cache (64 bytes @ 0x080002C0) -- Read from C cache (60 bytes @ 0x0800028C) - Data: 4F 8F BF F3 6F 8F 00 DF 00 BF 00 BF 08 ED 00 E0 ...  returns 0x3C (0001ms, 139122ms total)
T6D1C 337572:691 JLINK_ReadMemEx(0x080002C8, 0x003C Bytes, ..., Flags = 0x02000000) -- CPU_ReadMem(64 bytes @ 0x08000300) -- Updating C cache (64 bytes @ 0x08000300) -- Read from C cache (60 bytes @ 0x080002C8) - Data: F0 4F 10 60 08 B4 4F F0 50 00 80 F3 11 88 BF F3 ...  returns 0x3C (0001ms, 139123ms total)
T6D1C 337572:692 JLINK_ReadMemEx(0x08000304, 0x003C Bytes, ..., Flags = 0x02000000) -- Read from C cache (60 bytes @ 0x08000304) - Data: 6F 8F 70 47 9C 00 00 20 EF F3 05 80 70 47 00 00 ...  returns 0x3C (0000ms, 139123ms total)
T6D1C 337574:564 JLINK_ReadReg(R0)  returns 0x00000000 (0000ms, 139123ms total)
T6D1C 337574:564 JLINK_ReadReg(R1)  returns 0x00000000 (0000ms, 139123ms total)
T6D1C 337574:564 JLINK_ReadReg(R2)  returns 0x00000000 (0000ms, 139123ms total)
T6D1C 337574:564 JLINK_ReadReg(R3)  returns 0x00000000 (0000ms, 139123ms total)
T6D1C 337574:564 JLINK_ReadReg(R4)  returns 0x00000000 (0000ms, 139123ms total)
T6D1C 337574:564 JLINK_ReadReg(R5)  returns 0x00000000 (0000ms, 139123ms total)
T6D1C 337574:564 JLINK_ReadReg(R6)  returns 0x00000000 (0000ms, 139123ms total)
T6D1C 337574:564 JLINK_ReadReg(R7)  returns 0x00000000 (0000ms, 139123ms total)
T6D1C 337574:564 JLINK_ReadReg(R8)  returns 0x00000000 (0000ms, 139123ms total)
T6D1C 337574:564 JLINK_ReadReg(R9)  returns 0x00000000 (0000ms, 139123ms total)
T6D1C 337574:564 JLINK_ReadReg(R10)  returns 0x00000000 (0000ms, 139123ms total)
T6D1C 337574:564 JLINK_ReadReg(R11)  returns 0x00000000 (0000ms, 139123ms total)
T6D1C 337574:564 JLINK_ReadReg(R12)  returns 0x00000000 (0000ms, 139123ms total)
T6D1C 337574:564 JLINK_ReadReg(R13 (SP))  returns 0x2000C4A0 (0000ms, 139123ms total)
T6D1C 337574:564 JLINK_ReadReg(R14)  returns 0xFFFFFFFF (0000ms, 139123ms total)
T6D1C 337574:564 JLINK_ReadReg(R15 (PC))  returns 0x08000314 (0000ms, 139123ms total)
T6D1C 337574:564 JLINK_ReadReg(XPSR)  returns 0x01000000 (0000ms, 139123ms total)
T6D1C 337574:564 JLINK_ReadReg(MSP)  returns 0x2000C4A0 (0000ms, 139123ms total)
T6D1C 337574:564 JLINK_ReadReg(PSP)  returns 0x00000000 (0000ms, 139123ms total)
T6D1C 337574:564 JLINK_ReadReg(CFBP)  returns 0x00000000 (0000ms, 139123ms total)
T6D1C 337574:564 JLINK_ReadReg(FPSCR)  returns 0x00000000 (0002ms, 139125ms total)
T6D1C 337574:566 JLINK_ReadReg(FPS0)  returns 0x00000000 (0000ms, 139125ms total)
T6D1C 337574:566 JLINK_ReadReg(FPS1)  returns 0x00000000 (0000ms, 139125ms total)
T6D1C 337574:566 JLINK_ReadReg(FPS2)  returns 0x00000000 (0000ms, 139125ms total)
T6D1C 337574:566 JLINK_ReadReg(FPS3)  returns 0x00000000 (0000ms, 139125ms total)
T6D1C 337574:566 JLINK_ReadReg(FPS4)  returns 0x00000000 (0000ms, 139125ms total)
T6D1C 337574:566 JLINK_ReadReg(FPS5)  returns 0x00000000 (0000ms, 139125ms total)
T6D1C 337574:566 JLINK_ReadReg(FPS6)  returns 0x00000000 (0000ms, 139125ms total)
T6D1C 337574:566 JLINK_ReadReg(FPS7)  returns 0x00000000 (0000ms, 139125ms total)
T6D1C 337574:566 JLINK_ReadReg(FPS8)  returns 0x00000000 (0000ms, 139125ms total)
T6D1C 337574:566 JLINK_ReadReg(FPS9)  returns 0x00000000 (0000ms, 139125ms total)
T6D1C 337574:566 JLINK_ReadReg(FPS10)  returns 0x00000000 (0000ms, 139125ms total)
T6D1C 337574:566 JLINK_ReadReg(FPS11)  returns 0x00000000 (0000ms, 139125ms total)
T6D1C 337574:566 JLINK_ReadReg(FPS12)  returns 0x00000000 (0000ms, 139125ms total)
T6D1C 337574:566 JLINK_ReadReg(FPS13)  returns 0x00000000 (0000ms, 139125ms total)
T6D1C 337574:566 JLINK_ReadReg(FPS14)  returns 0x00000000 (0000ms, 139125ms total)
T6D1C 337574:566 JLINK_ReadReg(FPS15)  returns 0x00000000 (0001ms, 139126ms total)
T6D1C 337574:567 JLINK_ReadReg(FPS16)  returns 0x00000000 (0000ms, 139126ms total)
T6D1C 337574:567 JLINK_ReadReg(FPS17)  returns 0x00000000 (0000ms, 139126ms total)
T6D1C 337574:567 JLINK_ReadReg(FPS18)  returns 0x00000000 (0000ms, 139126ms total)
T6D1C 337574:567 JLINK_ReadReg(FPS19)  returns 0x00000000 (0000ms, 139126ms total)
T6D1C 337574:567 JLINK_ReadReg(FPS20)  returns 0x00000000 (0000ms, 139126ms total)
T6D1C 337574:567 JLINK_ReadReg(FPS21)  returns 0x00000000 (0000ms, 139126ms total)
T6D1C 337574:567 JLINK_ReadReg(FPS22)  returns 0x00000000 (0000ms, 139126ms total)
T6D1C 337574:567 JLINK_ReadReg(FPS23)  returns 0x00000000 (0000ms, 139126ms total)
T6D1C 337574:567 JLINK_ReadReg(FPS24)  returns 0x00000000 (0000ms, 139126ms total)
T6D1C 337574:567 JLINK_ReadReg(FPS25)  returns 0x00000000 (0000ms, 139126ms total)
T6D1C 337574:567 JLINK_ReadReg(FPS26)  returns 0x00000000 (0000ms, 139126ms total)
T6D1C 337574:567 JLINK_ReadReg(FPS27)  returns 0x00000000 (0000ms, 139126ms total)
T6D1C 337574:567 JLINK_ReadReg(FPS28)  returns 0x00000000 (0000ms, 139126ms total)
T6D1C 337574:567 JLINK_ReadReg(FPS29)  returns 0x00000000 (0000ms, 139126ms total)
T6D1C 337574:567 JLINK_ReadReg(FPS30)  returns 0x00000000 (0000ms, 139126ms total)
T6D1C 337574:567 JLINK_ReadReg(FPS31)  returns 0x00000000 (0000ms, 139126ms total)
T6D1C 337574:585 JLINK_ReadMemEx(0x2000003C, 0x0002 Bytes, ..., Flags = 0x02000000) -- CPU_ReadMem(64 bytes @ 0x20000000) -- Updating C cache (64 bytes @ 0x20000000) -- Read from C cache (2 bytes @ 0x2000003C) - Data: 00 00  returns 0x02 (0001ms, 139127ms total)
T6D1C 337574:592 JLINK_ReadMemEx(0x20000040, 0x0002 Bytes, ..., Flags = 0x02000000) -- CPU_ReadMem(64 bytes @ 0x20000040) -- Updating C cache (64 bytes @ 0x20000040) -- Read from C cache (2 bytes @ 0x20000040) - Data: 6D 00  returns 0x02 (0001ms, 139128ms total)
T6D1C 337574:598 JLINK_ReadMemEx(0x00000000, 0x0004 Bytes, ..., Flags = 0x02000000) -- CPU_ReadMem(4 bytes @ 0x00000004) -- CPU_ReadMem(64 bytes @ 0x08000000) -- Updating C cache (64 bytes @ 0x08000000) -- Read from C cache (4 bytes @ 0x08000000) - Data: A0 C4 00 20  returns 0x04 (0001ms, 139129ms total)
T6D1C 337574:611 JLINK_ReadMemEx(0x2000007C, 0x0001 Bytes, ..., Flags = 0x02000000) -- Read from C cache (1 bytes @ 0x2000007C) - Data: 00  returns 0x01 (0000ms, 139129ms total)
T6D1C 337574:631 JLINK_ReadMemEx(0x20000058, 0x0004 Bytes, ..., Flags = 0x02000000) -- Read from C cache (4 bytes @ 0x20000058) - Data: 00 00 00 00  returns 0x04 (0000ms, 139129ms total)
T6D1C 337574:638 JLINK_ReadMemEx(0x20000064, 0x0004 Bytes, ..., Flags = 0x02000000) -- Read from C cache (4 bytes @ 0x20000064) - Data: B0 00 B4 3B  returns 0x04 (0001ms, 139130ms total)
T6D1C 337574:647 JLINK_ReadMemEx(0x20000050, 0x0002 Bytes, ..., Flags = 0x02000000) -- Read from C cache (2 bytes @ 0x20000050) - Data: 95 FE  returns 0x02 (0000ms, 139130ms total)
T6D1C 337574:655 JLINK_ReadMemEx(0x2000004E, 0x0002 Bytes, ..., Flags = 0x02000000) -- Read from C cache (2 bytes @ 0x2000004E) - Data: 00 00  returns 0x02 (0000ms, 139130ms total)
T6D1C 337574:671 JLINK_ReadMemEx(0x2000004C, 0x0002 Bytes, ..., Flags = 0x02000000) -- Read from C cache (2 bytes @ 0x2000004C) - Data: 01 00  returns 0x02 (0000ms, 139130ms total)
T6D1C 337574:720 JLINK_ReadMemEx(0x20000038, 0x0001 Bytes, ..., Flags = 0x02000000) -- Read from C cache (1 bytes @ 0x20000038) - Data: 00  returns 0x01 (0000ms, 139130ms total)
T6D1C 337574:771 JLINK_ReadMemEx(0x2000003A, 0x0001 Bytes, ..., Flags = 0x02000000) -- Read from C cache (1 bytes @ 0x2000003A) - Data: 02  returns 0x01 (0000ms, 139130ms total)
T5984 337574:864 JLINK_ReadMemEx(0x08000314, 0x0002 Bytes, ..., Flags = 0x02000000) -- Read from C cache (2 bytes @ 0x08000314) - Data: 09 48  returns 0x02 (0000ms, 139130ms total)
T5984 337574:864 JLINK_SetBPEx(Addr = 0x080028B8, Type = 0xFFFFFFF2)  returns 0x00000001 (0000ms, 139130ms total)
T5984 337574:864 JLINK_Go() -- CPU_WriteMem(4 bytes @ 0xE0002000) -- CPU_ReadMem(4 bytes @ 0xE0001000) -- CPU_WriteMem(4 bytes @ 0xE0002008) -- CPU_WriteMem(4 bytes @ 0xE000200C) -- CPU_WriteMem(4 bytes @ 0xE0002010) -- CPU_WriteMem(4 bytes @ 0xE0002014) -- CPU_WriteMem(4 bytes @ 0xE0002018) -- CPU_WriteMem(4 bytes @ 0xE000201C) -- CPU_WriteMem(4 bytes @ 0xE0001004) (0002ms, 139132ms total)
T5984 337574:967 JLINK_IsHalted()  returns TRUE (0001ms, 139133ms total)
T5984 337574:968 JLINK_Halt()  returns 0x00 (0000ms, 139132ms total)
T5984 337574:968 JLINK_IsHalted()  returns TRUE (0000ms, 139132ms total)
T5984 337574:968 JLINK_IsHalted()  returns TRUE (0000ms, 139132ms total)
T5984 337574:968 JLINK_IsHalted()  returns TRUE (0000ms, 139132ms total)
T5984 337574:968 JLINK_ReadReg(R15 (PC))  returns 0x080028B8 (0000ms, 139132ms total)
T5984 337574:968 JLINK_ReadReg(XPSR)  returns 0x21000000 (0000ms, 139132ms total)
T5984 337574:968 JLINK_ClrBPEx(BPHandle = 0x00000001)  returns 0x00 (0000ms, 139132ms total)
T5984 337574:968 JLINK_ReadMemU32(0xE000ED30, 0x0001 Items, ...) -- CPU_ReadMem(4 bytes @ 0xE000ED30) - Data: 02 00 00 00  returns 0x01 (0001ms, 139133ms total)
T5984 337574:969 JLINK_ReadMemU32(0xE0001028, 0x0001 Items, ...) -- CPU_ReadMem(4 bytes @ 0xE0001028) - Data: 00 00 00 00  returns 0x01 (0000ms, 139133ms total)
T5984 337574:969 JLINK_ReadMemU32(0xE0001038, 0x0001 Items, ...) -- CPU_ReadMem(4 bytes @ 0xE0001038) - Data: 00 02 00 00  returns 0x01 (0000ms, 139133ms total)
T5984 337574:969 JLINK_ReadMemU32(0xE0001048, 0x0001 Items, ...) -- CPU_ReadMem(4 bytes @ 0xE0001048) - Data: 00 00 00 00  returns 0x01 (0000ms, 139133ms total)
T5984 337574:969 JLINK_ReadMemU32(0xE0001058, 0x0001 Items, ...) -- CPU_ReadMem(4 bytes @ 0xE0001058) - Data: 00 00 00 00  returns 0x01 (0001ms, 139134ms total)
T5984 337574:970 JLINK_ReadReg(R0)  returns 0x2000BEA0 (0000ms, 139134ms total)
T5984 337574:970 JLINK_ReadReg(R1)  returns 0x2000C0A0 (0000ms, 139134ms total)
T5984 337574:970 JLINK_ReadReg(R2)  returns 0x2000C0A0 (0000ms, 139134ms total)
T5984 337574:970 JLINK_ReadReg(R3)  returns 0x2000C0A0 (0000ms, 139134ms total)
T5984 337574:970 JLINK_ReadReg(R4)  returns 0x00000000 (0000ms, 139134ms total)
T5984 337574:970 JLINK_ReadReg(R5)  returns 0x2000BE40 (0000ms, 139134ms total)
T5984 337574:970 JLINK_ReadReg(R6)  returns 0x00000000 (0000ms, 139134ms total)
T5984 337574:970 JLINK_ReadReg(R7)  returns 0x00000000 (0000ms, 139134ms total)
T5984 337574:970 JLINK_ReadReg(R8)  returns 0x00000000 (0001ms, 139135ms total)
T5984 337574:971 JLINK_ReadReg(R9)  returns 0x00000000 (0000ms, 139135ms total)
T5984 337574:971 JLINK_ReadReg(R10)  returns 0x08005A48 (0000ms, 139135ms total)
T5984 337574:971 JLINK_ReadReg(R11)  returns 0x00000000 (0000ms, 139135ms total)
T5984 337574:971 JLINK_ReadReg(R12)  returns 0x2000BE80 (0000ms, 139135ms total)
T5984 337574:971 JLINK_ReadReg(R13 (SP))  returns 0x2000C4A0 (0000ms, 139135ms total)
T5984 337574:971 JLINK_ReadReg(R14)  returns 0x0800024B (0000ms, 139135ms total)
T5984 337574:971 JLINK_ReadReg(R15 (PC))  returns 0x080028B8 (0000ms, 139135ms total)
T5984 337574:971 JLINK_ReadReg(XPSR)  returns 0x21000000 (0000ms, 139135ms total)
T5984 337574:971 JLINK_ReadReg(MSP)  returns 0x2000C4A0 (0000ms, 139135ms total)
T5984 337574:971 JLINK_ReadReg(PSP)  returns 0x00000000 (0000ms, 139135ms total)
T5984 337574:971 JLINK_ReadReg(CFBP)  returns 0x04000000 (0000ms, 139135ms total)
T5984 337574:971 JLINK_ReadReg(FPSCR)  returns 0x03000000 (0002ms, 139137ms total)
T5984 337574:973 JLINK_ReadReg(FPS0)  returns 0x00000000 (0000ms, 139137ms total)
T5984 337574:973 JLINK_ReadReg(FPS1)  returns 0x00000000 (0000ms, 139137ms total)
T5984 337574:973 JLINK_ReadReg(FPS2)  returns 0x00000000 (0000ms, 139137ms total)
T5984 337574:973 JLINK_ReadReg(FPS3)  returns 0x00000000 (0000ms, 139137ms total)
T5984 337574:973 JLINK_ReadReg(FPS4)  returns 0x00000000 (0000ms, 139137ms total)
T5984 337574:973 JLINK_ReadReg(FPS5)  returns 0x00000000 (0000ms, 139137ms total)
T5984 337574:973 JLINK_ReadReg(FPS6)  returns 0x00000000 (0000ms, 139137ms total)
T5984 337574:973 JLINK_ReadReg(FPS7)  returns 0x00000000 (0000ms, 139137ms total)
T5984 337574:973 JLINK_ReadReg(FPS8)  returns 0x00000000 (0000ms, 139137ms total)
T5984 337574:973 JLINK_ReadReg(FPS9)  returns 0x00000000 (0000ms, 139137ms total)
T5984 337574:973 JLINK_ReadReg(FPS10)  returns 0x00000000 (0000ms, 139137ms total)
T5984 337574:973 JLINK_ReadReg(FPS11)  returns 0x00000000 (0000ms, 139137ms total)
T5984 337574:973 JLINK_ReadReg(FPS12)  returns 0x00000000 (0000ms, 139137ms total)
T5984 337574:973 JLINK_ReadReg(FPS13)  returns 0x00000000 (0000ms, 139137ms total)
T5984 337574:973 JLINK_ReadReg(FPS14)  returns 0x00000000 (0000ms, 139137ms total)
T5984 337574:973 JLINK_ReadReg(FPS15)  returns 0x00000000 (0000ms, 139137ms total)
T5984 337574:973 JLINK_ReadReg(FPS16)  returns 0x00000000 (0000ms, 139137ms total)
T5984 337574:973 JLINK_ReadReg(FPS17)  returns 0x00000000 (0000ms, 139137ms total)
T5984 337574:973 JLINK_ReadReg(FPS18)  returns 0x00000000 (0000ms, 139137ms total)
T5984 337574:973 JLINK_ReadReg(FPS19)  returns 0x00000000 (0000ms, 139137ms total)
T5984 337574:973 JLINK_ReadReg(FPS20)  returns 0x00000000 (0000ms, 139137ms total)
T5984 337574:974 JLINK_ReadReg(FPS21)  returns 0x00000000 (0000ms, 139137ms total)
T5984 337574:974 JLINK_ReadReg(FPS22)  returns 0x00000000 (0000ms, 139137ms total)
T5984 337574:974 JLINK_ReadReg(FPS23)  returns 0x00000000 (0000ms, 139137ms total)
T5984 337574:974 JLINK_ReadReg(FPS24)  returns 0x00000000 (0000ms, 139137ms total)
T5984 337574:974 JLINK_ReadReg(FPS25)  returns 0x00000000 (0000ms, 139137ms total)
T5984 337574:974 JLINK_ReadReg(FPS26)  returns 0x00000000 (0000ms, 139137ms total)
T5984 337574:974 JLINK_ReadReg(FPS27)  returns 0x00000000 (0000ms, 139137ms total)
T5984 337574:974 JLINK_ReadReg(FPS28)  returns 0x00000000 (0000ms, 139137ms total)
T5984 337574:974 JLINK_ReadReg(FPS29)  returns 0x00000000 (0000ms, 139137ms total)
T5984 337574:974 JLINK_ReadReg(FPS30)  returns 0x00000000 (0000ms, 139137ms total)
T5984 337574:974 JLINK_ReadReg(FPS31)  returns 0x00000000 (0000ms, 139137ms total)
T6D1C 337574:974 JLINK_ReadMemEx(0x2000003C, 0x0002 Bytes, ..., Flags = 0x02000000) -- CPU_ReadMem(64 bytes @ 0x20000000) -- Updating C cache (64 bytes @ 0x20000000) -- Read from C cache (2 bytes @ 0x2000003C) - Data: 00 00  returns 0x02 (0000ms, 139137ms total)
T6D1C 337574:975 JLINK_ReadMemEx(0x20000040, 0x0002 Bytes, ..., Flags = 0x02000000) -- CPU_ReadMem(64 bytes @ 0x20000040) -- Updating C cache (64 bytes @ 0x20000040) -- Read from C cache (2 bytes @ 0x20000040) - Data: 00 00  returns 0x02 (0000ms, 139137ms total)
T6D1C 337574:976 JLINK_ReadMemEx(0x00000000, 0x0004 Bytes, ..., Flags = 0x02000000) -- CPU_ReadMem(4 bytes @ 0x00000004) -- CPU_ReadMem(64 bytes @ 0x08000000) -- Updating C cache (64 bytes @ 0x08000000) -- Read from C cache (4 bytes @ 0x08000000) - Data: A0 C4 00 20  returns 0x04 (0000ms, 139137ms total)
T6D1C 337574:977 JLINK_ReadMemEx(0x2000007C, 0x0001 Bytes, ..., Flags = 0x02000000) -- Read from C cache (1 bytes @ 0x2000007C) - Data: 00  returns 0x01 (0000ms, 139137ms total)
T6D1C 337574:978 JLINK_ReadMemEx(0x20000058, 0x0004 Bytes, ..., Flags = 0x02000000) -- Read from C cache (4 bytes @ 0x20000058) - Data: 00 00 00 00  returns 0x04 (0000ms, 139137ms total)
T6D1C 337574:978 JLINK_ReadMemEx(0x20000064, 0x0004 Bytes, ..., Flags = 0x02000000) -- Read from C cache (4 bytes @ 0x20000064) - Data: 00 00 00 00  returns 0x04 (0000ms, 139137ms total)
T6D1C 337574:978 JLINK_ReadMemEx(0x20000050, 0x0002 Bytes, ..., Flags = 0x02000000) -- Read from C cache (2 bytes @ 0x20000050) - Data: 00 00  returns 0x02 (0000ms, 139137ms total)
T6D1C 337574:978 JLINK_ReadMemEx(0x2000004E, 0x0002 Bytes, ..., Flags = 0x02000000) -- Read from C cache (2 bytes @ 0x2000004E) - Data: 00 00  returns 0x02 (0000ms, 139137ms total)
T6D1C 337574:978 JLINK_ReadMemEx(0x2000004C, 0x0002 Bytes, ..., Flags = 0x02000000) -- Read from C cache (2 bytes @ 0x2000004C) - Data: 00 00  returns 0x02 (0000ms, 139137ms total)
T6D1C 337574:979 JLINK_ReadMemEx(0x20000038, 0x0001 Bytes, ..., Flags = 0x02000000) -- Read from C cache (1 bytes @ 0x20000038) - Data: 00  returns 0x01 (0000ms, 139137ms total)
T6D1C 337574:979 JLINK_ReadMemEx(0x2000003A, 0x0001 Bytes, ..., Flags = 0x02000000) -- Read from C cache (1 bytes @ 0x2000003A) - Data: 00  returns 0x01 (0000ms, 139137ms total)
T6D1C 337574:980 JLINK_ReadMemEx(0x080027B8, 0x003C Bytes, ..., Flags = 0x02000000) -- CPU_ReadMem(128 bytes @ 0x08002780) -- Updating C cache (128 bytes @ 0x08002780) -- Read from C cache (60 bytes @ 0x080027B8) - Data: F0 B5 A1 B0 4F F0 20 40 01 90 38 48 02 90 38 48 ...  returns 0x3C (0001ms, 139138ms total)
T6D1C 337574:981 JLINK_ReadMemEx(0x080027F4, 0x000C Bytes, ..., Flags = 0x02000000) -- Read from C cache (12 bytes @ 0x080027F4) - Data: 00 F0 08 00 00 90 2B 48 08 30 01 68  returns 0x0C (0000ms, 139138ms total)
T6D1C 337574:981 JLINK_ReadMemEx(0x08002800, 0x0030 Bytes, ..., Flags = 0x02000000) -- CPU_ReadMem(64 bytes @ 0x08002800) -- Updating C cache (64 bytes @ 0x08002800) -- Read from C cache (48 bytes @ 0x08002800) - Data: 41 F0 01 01 01 60 00 68 02 25 00 F0 01 00 00 90 ...  returns 0x30 (0001ms, 139139ms total)
T6D1C 337574:982 JLINK_ReadMemEx(0x08002830, 0x003C Bytes, ..., Flags = 0x02000000) -- CPU_ReadMem(64 bytes @ 0x08002840) -- Updating C cache (64 bytes @ 0x08002840) -- Read from C cache (60 bytes @ 0x08002830) - Data: 1E AA 1C A9 82 E8 D0 00 1D 48 FE F7 6B F8 4F F6 ...  returns 0x3C (0000ms, 139139ms total)
T6D1C 337574:982 JLINK_ReadMemEx(0x0800286C, 0x003C Bytes, ..., Flags = 0x02000000) -- CPU_ReadMem(64 bytes @ 0x08002880) -- Updating C cache (64 bytes @ 0x08002880) -- Read from C cache (60 bytes @ 0x0800286C) - Data: 1B 94 10 20 CD E9 06 04 00 02 CD E9 0A 40 03 94 ...  returns 0x3C (0000ms, 139139ms total)
T6D1C 337574:982 JLINK_ReadMemEx(0x080028B6, 0x0002 Bytes, ..., Flags = 0x02000000) -- Read from C cache (2 bytes @ 0x080028B6) - Data: 02 40  returns 0x02 (0000ms, 139139ms total)
T6D1C 337574:982 JLINK_ReadMemEx(0x080028B8, 0x003C Bytes, ..., Flags = 0x02000000) -- CPU_ReadMem(64 bytes @ 0x080028C0) -- Updating C cache (64 bytes @ 0x080028C0) -- Read from C cache (60 bytes @ 0x080028B8) - Data: 10 B5 FE F7 2D F9 08 23 02 22 10 21 4F F4 B4 70 ...  returns 0x3C (0001ms, 139140ms total)
T5984 337575:065 JLINK_ReadMemEx(0x080028B8, 0x0002 Bytes, ..., Flags = 0x02000000) -- Read from C cache (2 bytes @ 0x080028B8) - Data: 10 B5  returns 0x02 (0000ms, 139140ms total)
T5984 337575:065 JLINK_Go() -- CPU_ReadMem(4 bytes @ 0xE0001000) -- CPU_WriteMem(4 bytes @ 0xE0002008) (0000ms, 139140ms total)
T5984 337575:166 JLINK_IsHalted()  returns FALSE (0000ms, 139141ms total)
T5984 337575:267 JLINK_IsHalted()  returns FALSE (0000ms, 139141ms total)
T5984 337575:368 JLINK_IsHalted()  returns FALSE (0000ms, 139141ms total)
T5984 337575:469 JLINK_IsHalted()  returns FALSE (0001ms, 139142ms total)
T5984 337575:570 JLINK_IsHalted()  returns FALSE (0000ms, 139141ms total)
T5984 337575:671 JLINK_ReadMemU32(0xE0001004, 0x0001 Items, ...) -- CPU_ReadMem(4 bytes @ 0xE0001004) - Data: 78 50 7F 06  returns 0x01 (0000ms, 139141ms total)
T6D1C 337575:671 JLINK_ReadMemEx(0x2000003C, 0x0002 Bytes, ..., Flags = 0x02000000) -- CPU_ReadMem(2 bytes @ 0x2000003C) - Data: 00 00  returns 0x02 (0001ms, 139142ms total)
T6D1C 337575:672 JLINK_ReadMemEx(0x20000040, 0x0002 Bytes, ..., Flags = 0x02000000) -- CPU_ReadMem(2 bytes @ 0x20000040) - Data: 6D 00  returns 0x02 (0000ms, 139142ms total)
T6D1C 337575:673 JLINK_ReadMemEx(0x00000000, 0x0004 Bytes, ..., Flags = 0x02000000) -- CPU_ReadMem(4 bytes @ 0x00000004) -- CPU_ReadMem(4 bytes @ 0x08000000) - Data: A0 C4 00 20  returns 0x04 (0000ms, 139142ms total)
T6D1C 337575:673 JLINK_ReadMemEx(0x00000000, 0x0002 Bytes, ..., Flags = 0x02000000) -- CPU_ReadMem(2 bytes @ 0x08000000) - Data: A0 C4  returns 0x02 (0001ms, 139143ms total)
T6D1C 337575:674 JLINK_ReadMemEx(0x2000007C, 0x0001 Bytes, ..., Flags = 0x02000000) -- CPU_ReadMem(1 bytes @ 0x2000007C) - Data: 00  returns 0x01 (0000ms, 139143ms total)
T6D1C 337575:674 JLINK_ReadMemEx(0x20000058, 0x0004 Bytes, ..., Flags = 0x02000000) -- CPU_ReadMem(4 bytes @ 0x20000058) - Data: 00 00 00 00  returns 0x04 (0001ms, 139144ms total)
T6D1C 337575:675 JLINK_ReadMemEx(0x20000064, 0x0004 Bytes, ..., Flags = 0x02000000) -- CPU_ReadMem(4 bytes @ 0x20000064) - Data: B0 00 B4 3B  returns 0x04 (0000ms, 139144ms total)
T6D1C 337575:675 JLINK_ReadMemEx(0x20000050, 0x0002 Bytes, ..., Flags = 0x02000000) -- CPU_ReadMem(2 bytes @ 0x20000050) - Data: 95 FE  returns 0x02 (0001ms, 139145ms total)
T6D1C 337575:676 JLINK_ReadMemEx(0x2000004E, 0x0002 Bytes, ..., Flags = 0x02000000) -- CPU_ReadMem(2 bytes @ 0x2000004E) - Data: 00 00  returns 0x02 (0000ms, 139145ms total)
T6D1C 337575:676 JLINK_ReadMemEx(0x2000004C, 0x0002 Bytes, ..., Flags = 0x02000000) -- CPU_ReadMem(2 bytes @ 0x2000004C) - Data: 00 00  returns 0x02 (0001ms, 139146ms total)
T6D1C 337575:677 JLINK_ReadMemEx(0x20000038, 0x0001 Bytes, ..., Flags = 0x02000000) -- CPU_ReadMem(1 bytes @ 0x20000038) - Data: 00  returns 0x01 (0001ms, 139147ms total)
T6D1C 337575:678 JLINK_ReadMemEx(0x20000038, 0x0001 Bytes, ..., Flags = 0x02000000) -- CPU_ReadMem(1 bytes @ 0x20000038) - Data: 00  returns 0x01 (0000ms, 139147ms total)
T6D1C 337575:678 JLINK_ReadMemEx(0x2000007C, 0x0001 Bytes, ..., Flags = 0x02000000) -- CPU_ReadMem(1 bytes @ 0x2000007C) - Data: 00  returns 0x01 (0001ms, 139148ms total)
T6D1C 337575:679 JLINK_ReadMemEx(0x2000003A, 0x0001 Bytes, ..., Flags = 0x02000000) -- CPU_ReadMem(1 bytes @ 0x2000003A) - Data: 00  returns 0x01 (0000ms, 139148ms total)
T6D1C 337575:680 JLINK_ReadMemEx(0x2000007C, 0x0001 Bytes, ..., Flags = 0x02000000) -- CPU_ReadMem(1 bytes @ 0x2000007C) - Data: 00  returns 0x01 (0000ms, 139148ms total)
T5984 337575:680 JLINK_IsHalted()  returns FALSE (0000ms, 139148ms total)
T5984 337575:782 JLINK_IsHalted()  returns FALSE (0000ms, 139148ms total)
T5984 337575:883 JLINK_IsHalted()  returns FALSE (0000ms, 139148ms total)
T5984 337575:984 JLINK_IsHalted()  returns FALSE (0000ms, 139148ms total)
T5984 337576:084 JLINK_IsHalted()  returns FALSE (0000ms, 139148ms total)
T5984 337576:185 JLINK_ReadMemU32(0xE0001004, 0x0001 Items, ...) - Data: 78 50 7F 06  returns 0x01 (0000ms, 139148ms total)
T6D1C 337576:185 JLINK_ReadMemEx(0x2000003C, 0x0002 Bytes, ..., Flags = 0x02000000) -- CPU_ReadMem(2 bytes @ 0x2000003C) - Data: 00 00  returns 0x02 (0000ms, 139148ms total)
T6D1C 337576:185 JLINK_ReadMemEx(0x20000040, 0x0002 Bytes, ..., Flags = 0x02000000) -- CPU_ReadMem(2 bytes @ 0x20000040) - Data: 6D 00  returns 0x02 (0001ms, 139149ms total)
T6D1C 337576:186 JLINK_ReadMemEx(0x00000000, 0x0004 Bytes, ..., Flags = 0x02000000) -- CPU_ReadMem(4 bytes @ 0x08000000) - Data: A0 C4 00 20  returns 0x04 (0000ms, 139149ms total)
T6D1C 337576:186 JLINK_ReadMemEx(0x00000000, 0x0002 Bytes, ..., Flags = 0x02000000) -- CPU_ReadMem(2 bytes @ 0x08000000) - Data: A0 C4  returns 0x02 (0001ms, 139150ms total)
T6D1C 337576:187 JLINK_ReadMemEx(0x2000007C, 0x0001 Bytes, ..., Flags = 0x02000000) -- CPU_ReadMem(1 bytes @ 0x2000007C) - Data: 00  returns 0x01 (0000ms, 139150ms total)
T6D1C 337576:187 JLINK_ReadMemEx(0x20000058, 0x0004 Bytes, ..., Flags = 0x02000000) -- CPU_ReadMem(4 bytes @ 0x20000058) - Data: 00 00 00 00  returns 0x04 (0001ms, 139151ms total)
T6D1C 337576:188 JLINK_ReadMemEx(0x20000064, 0x0004 Bytes, ..., Flags = 0x02000000) -- CPU_ReadMem(4 bytes @ 0x20000064) - Data: B0 00 B4 3B  returns 0x04 (0000ms, 139151ms total)
T6D1C 337576:188 JLINK_ReadMemEx(0x20000050, 0x0002 Bytes, ..., Flags = 0x02000000) -- CPU_ReadMem(2 bytes @ 0x20000050) - Data: 95 FE  returns 0x02 (0001ms, 139152ms total)
T6D1C 337576:189 JLINK_ReadMemEx(0x2000004E, 0x0002 Bytes, ..., Flags = 0x02000000) -- CPU_ReadMem(2 bytes @ 0x2000004E) - Data: 00 00  returns 0x02 (0000ms, 139152ms total)
T6D1C 337576:189 JLINK_ReadMemEx(0x2000004C, 0x0002 Bytes, ..., Flags = 0x02000000) -- CPU_ReadMem(2 bytes @ 0x2000004C) - Data: 00 00  returns 0x02 (0001ms, 139153ms total)
T6D1C 337576:190 JLINK_ReadMemEx(0x20000038, 0x0001 Bytes, ..., Flags = 0x02000000) -- CPU_ReadMem(1 bytes @ 0x20000038) - Data: 00  returns 0x01 (0000ms, 139153ms total)
T6D1C 337576:190 JLINK_ReadMemEx(0x20000038, 0x0001 Bytes, ..., Flags = 0x02000000) -- CPU_ReadMem(1 bytes @ 0x20000038) - Data: 00  returns 0x01 (0001ms, 139154ms total)
T6D1C 337576:191 JLINK_ReadMemEx(0x2000007C, 0x0001 Bytes, ..., Flags = 0x02000000) -- CPU_ReadMem(1 bytes @ 0x2000007C) - Data: 00  returns 0x01 (0000ms, 139154ms total)
T6D1C 337576:192 JLINK_ReadMemEx(0x2000003A, 0x0001 Bytes, ..., Flags = 0x02000000) -- CPU_ReadMem(1 bytes @ 0x2000003A) - Data: 00  returns 0x01 (0001ms, 139155ms total)
T6D1C 337576:193 JLINK_ReadMemEx(0x2000007C, 0x0001 Bytes, ..., Flags = 0x02000000) -- CPU_ReadMem(1 bytes @ 0x2000007C) - Data: 00  returns 0x01 (0000ms, 139155ms total)
T5984 337576:194 JLINK_IsHalted()  returns FALSE (0000ms, 139156ms total)
T5984 337576:295 JLINK_IsHalted()  returns FALSE (0000ms, 139156ms total)
T5984 337576:395 JLINK_IsHalted()  returns FALSE (0000ms, 139156ms total)
T5984 337576:497 JLINK_IsHalted()  returns FALSE (0000ms, 139156ms total)
T5984 337576:598 JLINK_IsHalted()  returns FALSE (0000ms, 139156ms total)
T5984 337576:698 JLINK_ReadMemU32(0xE0001004, 0x0001 Items, ...) - Data: 78 50 7F 06  returns 0x01 (0000ms, 139156ms total)
T6D1C 337576:699 JLINK_ReadMemEx(0x2000003C, 0x0002 Bytes, ..., Flags = 0x02000000) -- CPU_ReadMem(2 bytes @ 0x2000003C) - Data: 00 00  returns 0x02 (0000ms, 139156ms total)
T6D1C 337576:699 JLINK_ReadMemEx(0x20000040, 0x0002 Bytes, ..., Flags = 0x02000000) -- CPU_ReadMem(2 bytes @ 0x20000040) - Data: 6D 00  returns 0x02 (0000ms, 139156ms total)
T6D1C 337576:699 JLINK_ReadMemEx(0x00000000, 0x0004 Bytes, ..., Flags = 0x02000000) -- CPU_ReadMem(4 bytes @ 0x08000000) - Data: A0 C4 00 20  returns 0x04 (0001ms, 139157ms total)
T6D1C 337576:700 JLINK_ReadMemEx(0x00000000, 0x0002 Bytes, ..., Flags = 0x02000000) -- CPU_ReadMem(2 bytes @ 0x08000000) - Data: A0 C4  returns 0x02 (0000ms, 139157ms total)
T6D1C 337576:700 JLINK_ReadMemEx(0x2000007C, 0x0001 Bytes, ..., Flags = 0x02000000) -- CPU_ReadMem(1 bytes @ 0x2000007C) - Data: 00  returns 0x01 (0000ms, 139157ms total)
T6D1C 337576:701 JLINK_ReadMemEx(0x20000058, 0x0004 Bytes, ..., Flags = 0x02000000) -- CPU_ReadMem(4 bytes @ 0x20000058) - Data: 00 00 00 00  returns 0x04 (0000ms, 139157ms total)
T6D1C 337576:701 JLINK_ReadMemEx(0x20000064, 0x0004 Bytes, ..., Flags = 0x02000000) -- CPU_ReadMem(4 bytes @ 0x20000064) - Data: B0 00 B4 3B  returns 0x04 (0001ms, 139158ms total)
T6D1C 337576:702 JLINK_ReadMemEx(0x20000050, 0x0002 Bytes, ..., Flags = 0x02000000) -- CPU_ReadMem(2 bytes @ 0x20000050) - Data: 95 FE  returns 0x02 (0000ms, 139158ms total)
T6D1C 337576:702 JLINK_ReadMemEx(0x2000004E, 0x0002 Bytes, ..., Flags = 0x02000000) -- CPU_ReadMem(2 bytes @ 0x2000004E) - Data: 00 00  returns 0x02 (0000ms, 139158ms total)
T6D1C 337576:702 JLINK_ReadMemEx(0x2000004C, 0x0002 Bytes, ..., Flags = 0x02000000) -- CPU_ReadMem(2 bytes @ 0x2000004C) - Data: 00 00  returns 0x02 (0001ms, 139159ms total)
T6D1C 337576:703 JLINK_ReadMemEx(0x20000038, 0x0001 Bytes, ..., Flags = 0x02000000) -- CPU_ReadMem(1 bytes @ 0x20000038) - Data: 00  returns 0x01 (0000ms, 139159ms total)
T6D1C 337576:703 JLINK_ReadMemEx(0x20000038, 0x0001 Bytes, ..., Flags = 0x02000000) -- CPU_ReadMem(1 bytes @ 0x20000038) - Data: 00  returns 0x01 (0001ms, 139160ms total)
T6D1C 337576:704 JLINK_ReadMemEx(0x2000007C, 0x0001 Bytes, ..., Flags = 0x02000000) -- CPU_ReadMem(1 bytes @ 0x2000007C) - Data: 00  returns 0x01 (0001ms, 139161ms total)
T6D1C 337576:706 JLINK_ReadMemEx(0x2000003A, 0x0001 Bytes, ..., Flags = 0x02000000) -- CPU_ReadMem(1 bytes @ 0x2000003A) - Data: 00  returns 0x01 (0000ms, 139161ms total)
T6D1C 337576:707 JLINK_ReadMemEx(0x2000007C, 0x0001 Bytes, ..., Flags = 0x02000000) -- CPU_ReadMem(1 bytes @ 0x2000007C) - Data: 00  returns 0x01 (0000ms, 139161ms total)
T5984 337576:707 JLINK_IsHalted()  returns FALSE (0000ms, 139161ms total)
T5984 337576:808 JLINK_IsHalted()  returns FALSE (0000ms, 139161ms total)
T5984 337576:909 JLINK_IsHalted()  returns FALSE (0000ms, 139161ms total)
T5984 337577:010 JLINK_IsHalted()  returns FALSE (0000ms, 139161ms total)
T5984 337577:111 JLINK_IsHalted()  returns FALSE (0000ms, 139161ms total)
T6D1C 337577:200 JLINK_SetBPEx(Addr = 0x080035F4, Type = 0xFFFFFFF2) -- CPU is running -- CPU is running -- CPU_WriteMem(4 bytes @ 0xE0002000) -- CPU is running -- CPU_WriteMem(4 bytes @ 0xE0002008)  returns 0x00000002 (0000ms, 139161ms total)
T5984 337577:212 JLINK_ReadMemU32(0xE0001004, 0x0001 Items, ...) - Data: 78 50 7F 06  returns 0x01 (0000ms, 139161ms total)
T6D1C 337577:212 JLINK_ReadMemEx(0x2000003C, 0x0002 Bytes, ..., Flags = 0x02000000) -- CPU_ReadMem(2 bytes @ 0x2000003C) - Data: 00 00  returns 0x02 (0000ms, 139161ms total)
T6D1C 337577:212 JLINK_ReadMemEx(0x20000040, 0x0002 Bytes, ..., Flags = 0x02000000) -- CPU_ReadMem(2 bytes @ 0x20000040) - Data: 6D 00  returns 0x02 (0001ms, 139162ms total)
T6D1C 337577:213 JLINK_ReadMemEx(0x00000000, 0x0004 Bytes, ..., Flags = 0x02000000) -- CPU_ReadMem(4 bytes @ 0x08000000) - Data: A0 C4 00 20  returns 0x04 (0000ms, 139162ms total)
T6D1C 337577:213 JLINK_ReadMemEx(0x00000000, 0x0002 Bytes, ..., Flags = 0x02000000) -- CPU_ReadMem(2 bytes @ 0x08000000) - Data: A0 C4  returns 0x02 (0000ms, 139162ms total)
T6D1C 337577:213 JLINK_ReadMemEx(0x2000007C, 0x0001 Bytes, ..., Flags = 0x02000000) -- CPU_ReadMem(1 bytes @ 0x2000007C) - Data: 00  returns 0x01 (0001ms, 139163ms total)
T6D1C 337577:214 JLINK_ReadMemEx(0x20000058, 0x0004 Bytes, ..., Flags = 0x02000000) -- CPU_ReadMem(4 bytes @ 0x20000058) - Data: 00 00 00 00  returns 0x04 (0001ms, 139164ms total)
T6D1C 337577:215 JLINK_ReadMemEx(0x20000064, 0x0004 Bytes, ..., Flags = 0x02000000) -- CPU_ReadMem(4 bytes @ 0x20000064) - Data: B0 00 B4 3B  returns 0x04 (0000ms, 139164ms total)
T6D1C 337577:215 JLINK_ReadMemEx(0x20000050, 0x0002 Bytes, ..., Flags = 0x02000000) -- CPU_ReadMem(2 bytes @ 0x20000050) - Data: 95 FE  returns 0x02 (0000ms, 139164ms total)
T6D1C 337577:215 JLINK_ReadMemEx(0x2000004E, 0x0002 Bytes, ..., Flags = 0x02000000) -- CPU_ReadMem(2 bytes @ 0x2000004E) - Data: 00 00  returns 0x02 (0000ms, 139164ms total)
T6D1C 337577:215 JLINK_ReadMemEx(0x2000004C, 0x0002 Bytes, ..., Flags = 0x02000000) -- CPU_ReadMem(2 bytes @ 0x2000004C) - Data: 00 00  returns 0x02 (0001ms, 139165ms total)
T6D1C 337577:216 JLINK_ReadMemEx(0x20000038, 0x0001 Bytes, ..., Flags = 0x02000000) -- CPU_ReadMem(1 bytes @ 0x20000038) - Data: 00  returns 0x01 (0000ms, 139165ms total)
T6D1C 337577:216 JLINK_ReadMemEx(0x20000038, 0x0001 Bytes, ..., Flags = 0x02000000) -- CPU_ReadMem(1 bytes @ 0x20000038) - Data: 00  returns 0x01 (0001ms, 139166ms total)
T6D1C 337577:217 JLINK_ReadMemEx(0x2000007C, 0x0001 Bytes, ..., Flags = 0x02000000) -- CPU_ReadMem(1 bytes @ 0x2000007C) - Data: 00  returns 0x01 (0000ms, 139166ms total)
T6D1C 337577:217 JLINK_ReadMemEx(0x2000003A, 0x0001 Bytes, ..., Flags = 0x02000000) -- CPU_ReadMem(1 bytes @ 0x2000003A) - Data: 00  returns 0x01 (0002ms, 139168ms total)
T6D1C 337577:219 JLINK_ReadMemEx(0x2000007C, 0x0001 Bytes, ..., Flags = 0x02000000) -- CPU_ReadMem(1 bytes @ 0x2000007C) - Data: 00  returns 0x01 (0001ms, 139169ms total)
T5984 337577:220 JLINK_IsHalted()  returns TRUE (0001ms, 139170ms total)
T5984 337577:221 JLINK_Halt()  returns 0x00 (0000ms, 139169ms total)
T5984 337577:221 JLINK_IsHalted()  returns TRUE (0000ms, 139169ms total)
T5984 337577:221 JLINK_IsHalted()  returns TRUE (0000ms, 139169ms total)
T5984 337577:221 JLINK_IsHalted()  returns TRUE (0000ms, 139169ms total)
T5984 337577:221 JLINK_ReadReg(R15 (PC))  returns 0x080035F4 (0000ms, 139169ms total)
T5984 337577:221 JLINK_ReadReg(XPSR)  returns 0x21000000 (0000ms, 139169ms total)
T5984 337577:221 JLINK_ClrBPEx(BPHandle = 0x00000002)  returns 0x00 (0000ms, 139169ms total)
T5984 337577:221 JLINK_ReadMemU32(0xE000ED30, 0x0001 Items, ...) -- CPU_ReadMem(4 bytes @ 0xE000ED30) - Data: 02 00 00 00  returns 0x01 (0001ms, 139170ms total)
T5984 337577:222 JLINK_ReadMemU32(0xE0001028, 0x0001 Items, ...) -- CPU_ReadMem(4 bytes @ 0xE0001028) - Data: 00 00 00 00  returns 0x01 (0000ms, 139170ms total)
T5984 337577:222 JLINK_ReadMemU32(0xE0001038, 0x0001 Items, ...) -- CPU_ReadMem(4 bytes @ 0xE0001038) - Data: 00 02 00 00  returns 0x01 (0001ms, 139171ms total)
T5984 337577:223 JLINK_ReadMemU32(0xE0001048, 0x0001 Items, ...) -- CPU_ReadMem(4 bytes @ 0xE0001048) - Data: 00 00 00 00  returns 0x01 (0000ms, 139171ms total)
T5984 337577:223 JLINK_ReadMemU32(0xE0001058, 0x0001 Items, ...) -- CPU_ReadMem(4 bytes @ 0xE0001058) - Data: 00 00 00 00  returns 0x01 (0000ms, 139171ms total)
T5984 337577:223 JLINK_ReadReg(R0)  returns 0x0000FFEB (0000ms, 139171ms total)
T5984 337577:223 JLINK_ReadReg(R1)  returns 0x00000001 (0000ms, 139171ms total)
T5984 337577:223 JLINK_ReadReg(R2)  returns 0xFFFFFFEB (0000ms, 139171ms total)
T5984 337577:223 JLINK_ReadReg(R3)  returns 0x0002A93E (0000ms, 139171ms total)
T5984 337577:223 JLINK_ReadReg(R4)  returns 0x00000000 (0000ms, 139171ms total)
T5984 337577:224 JLINK_ReadReg(R5)  returns 0x20000038 (0000ms, 139172ms total)
T5984 337577:224 JLINK_ReadReg(R6)  returns 0x2000011C (0000ms, 139172ms total)
T5984 337577:224 JLINK_ReadReg(R7)  returns 0x60840000 (0000ms, 139172ms total)
T5984 337577:224 JLINK_ReadReg(R8)  returns 0x60860000 (0000ms, 139172ms total)
T5984 337577:224 JLINK_ReadReg(R9)  returns 0x20000110 (0000ms, 139172ms total)
T5984 337577:224 JLINK_ReadReg(R10)  returns 0x00000001 (0000ms, 139172ms total)
T5984 337577:224 JLINK_ReadReg(R11)  returns 0x20000088 (0000ms, 139172ms total)
T5984 337577:224 JLINK_ReadReg(R12)  returns 0xA5A5A5A5 (0000ms, 139172ms total)
T5984 337577:224 JLINK_ReadReg(R13 (SP))  returns 0x200014C0 (0000ms, 139172ms total)
T5984 337577:224 JLINK_ReadReg(R14)  returns 0x08003571 (0000ms, 139172ms total)
T5984 337577:224 JLINK_ReadReg(R15 (PC))  returns 0x080035F4 (0000ms, 139172ms total)
T5984 337577:224 JLINK_ReadReg(XPSR)  returns 0x21000000 (0000ms, 139172ms total)
T5984 337577:224 JLINK_ReadReg(MSP)  returns 0x2000C438 (0000ms, 139172ms total)
T5984 337577:224 JLINK_ReadReg(PSP)  returns 0x200014C0 (0000ms, 139172ms total)
T5984 337577:224 JLINK_ReadReg(CFBP)  returns 0x06000000 (0000ms, 139172ms total)
T5984 337577:224 JLINK_ReadReg(FPSCR)  returns 0x80000010 (0002ms, 139174ms total)
T5984 337577:226 JLINK_ReadReg(FPS0)  returns 0x00000001 (0000ms, 139174ms total)
T5984 337577:226 JLINK_ReadReg(FPS1)  returns 0x3F800000 (0000ms, 139174ms total)
T5984 337577:226 JLINK_ReadReg(FPS2)  returns 0x47FFFF80 (0000ms, 139174ms total)
T5984 337577:226 JLINK_ReadReg(FPS3)  returns 0x00000000 (0000ms, 139174ms total)
T5984 337577:226 JLINK_ReadReg(FPS4)  returns 0x00000000 (0000ms, 139174ms total)
T5984 337577:226 JLINK_ReadReg(FPS5)  returns 0x00000000 (0000ms, 139174ms total)
T5984 337577:226 JLINK_ReadReg(FPS6)  returns 0x00000000 (0000ms, 139174ms total)
T5984 337577:226 JLINK_ReadReg(FPS7)  returns 0x00000000 (0000ms, 139174ms total)
T5984 337577:226 JLINK_ReadReg(FPS8)  returns 0x00000000 (0000ms, 139174ms total)
T5984 337577:226 JLINK_ReadReg(FPS9)  returns 0x00000000 (0000ms, 139174ms total)
T5984 337577:226 JLINK_ReadReg(FPS10)  returns 0x00000000 (0000ms, 139174ms total)
T5984 337577:226 JLINK_ReadReg(FPS11)  returns 0x00000000 (0000ms, 139174ms total)
T5984 337577:226 JLINK_ReadReg(FPS12)  returns 0x00000000 (0000ms, 139174ms total)
T5984 337577:226 JLINK_ReadReg(FPS13)  returns 0x00000000 (0000ms, 139174ms total)
T5984 337577:226 JLINK_ReadReg(FPS14)  returns 0x00000000 (0000ms, 139174ms total)
T5984 337577:226 JLINK_ReadReg(FPS15)  returns 0x00000000 (0000ms, 139174ms total)
T5984 337577:226 JLINK_ReadReg(FPS16)  returns 0x43B40000 (0000ms, 139174ms total)
T5984 337577:226 JLINK_ReadReg(FPS17)  returns 0x00000000 (0000ms, 139174ms total)
T5984 337577:226 JLINK_ReadReg(FPS18)  returns 0x00000000 (0000ms, 139174ms total)
T5984 337577:226 JLINK_ReadReg(FPS19)  returns 0x00000000 (0000ms, 139174ms total)
T5984 337577:226 JLINK_ReadReg(FPS20)  returns 0x00000000 (0000ms, 139174ms total)
T5984 337577:226 JLINK_ReadReg(FPS21)  returns 0x00000000 (0000ms, 139174ms total)
T5984 337577:226 JLINK_ReadReg(FPS22)  returns 0x00000000 (0000ms, 139174ms total)
T5984 337577:226 JLINK_ReadReg(FPS23)  returns 0x00000000 (0000ms, 139174ms total)
T5984 337577:226 JLINK_ReadReg(FPS24)  returns 0x00000000 (0000ms, 139174ms total)
T5984 337577:226 JLINK_ReadReg(FPS25)  returns 0x00000000 (0000ms, 139174ms total)
T5984 337577:226 JLINK_ReadReg(FPS26)  returns 0x00000000 (0000ms, 139174ms total)
T5984 337577:226 JLINK_ReadReg(FPS27)  returns 0x00000000 (0000ms, 139174ms total)
T5984 337577:226 JLINK_ReadReg(FPS28)  returns 0x00000000 (0000ms, 139174ms total)
T5984 337577:226 JLINK_ReadReg(FPS29)  returns 0x00000000 (0000ms, 139174ms total)
T5984 337577:226 JLINK_ReadReg(FPS30)  returns 0x00000000 (0001ms, 139175ms total)
T5984 337577:227 JLINK_ReadReg(FPS31)  returns 0x00000000 (0000ms, 139175ms total)
T6D1C 337577:227 JLINK_ReadMemEx(0x2000003C, 0x0002 Bytes, ..., Flags = 0x02000000) -- CPU_ReadMem(64 bytes @ 0x20000000) -- Updating C cache (64 bytes @ 0x20000000) -- Read from C cache (2 bytes @ 0x2000003C) - Data: 00 00  returns 0x02 (0000ms, 139175ms total)
T6D1C 337577:227 JLINK_ReadMemEx(0x20000040, 0x0002 Bytes, ..., Flags = 0x02000000) -- CPU_ReadMem(64 bytes @ 0x20000040) -- Updating C cache (64 bytes @ 0x20000040) -- Read from C cache (2 bytes @ 0x20000040) - Data: 6D 00  returns 0x02 (0001ms, 139176ms total)
T6D1C 337577:228 JLINK_ReadMemEx(0x00000000, 0x0004 Bytes, ..., Flags = 0x02000000) -- CPU_ReadMem(4 bytes @ 0x00000004) -- CPU_ReadMem(64 bytes @ 0x08000000) -- Updating C cache (64 bytes @ 0x08000000) -- Read from C cache (4 bytes @ 0x08000000) - Data: A0 C4 00 20  returns 0x04 (0001ms, 139177ms total)
T6D1C 337577:229 JLINK_ReadMemEx(0x2000007C, 0x0001 Bytes, ..., Flags = 0x02000000) -- Read from C cache (1 bytes @ 0x2000007C) - Data: 00  returns 0x01 (0000ms, 139177ms total)
T6D1C 337577:241 JLINK_ReadMemEx(0x20000058, 0x0004 Bytes, ..., Flags = 0x02000000) -- Read from C cache (4 bytes @ 0x20000058) - Data: 00 00 00 00  returns 0x04 (0000ms, 139177ms total)
